Circuit: *

No AC stimulus found:
     Set the value of a current or voltage source to "AC 1."
     to make it behave as a signal generator for AC analysis.
Direct Newton iteration for .op point succeeded.
Semiconductor Device Operating Points:
                        --- Bipolar Transistors ---
Name:       q1          q2
Model:      t1          t1
Ib:       3.04e-04    9.80e-04
Ic:       1.06e-02    2.82e-02
Vbe:      8.02e-01    8.78e-01
Vbc:     -7.21e-01   -1.52e+00
Vce:      1.52e+00    2.40e+00
BetaDC:   3.49e+01    2.88e+01
Gm:       3.70e-01    9.13e-01
Rpi:      8.69e+01    2.69e+01
Rx:       2.53e+00    5.04e+00
Ro:       3.18e+04    1.05e+04
Cbe:      1.20e-12    1.59e-12
Cbc:      1.74e-13    7.42e-14
Cjs:      2.45e-14    1.25e-14
BetaAC:   3.22e+01    2.46e+01
Cbx:      0.00e+00    0.00e+00
Ft:       4.30e+10    8.73e+10



Date: Mon Apr  8 22:06:22 2024
Total elapsed time: 0.059 seconds.

tnom = 27
temp = 27
method = trap
totiter = 12
traniter = 0
tranpoints = 0
accept = 0
rejected = 0
matrix size = 12
fillins = 6
solver = Normal
Avg thread counts: 16.0/0.0/16.0/10.5
Matrix Compiler1:      70 opcodes
Matrix Compiler2: 1.11 KB object code size
